time	V(After_R1,FBR_Output)*I(R1)	V(after_r1)	V(fbr_output)	V(gpio)	I(D1)	I(R1)	I(R2)	I(R3)	I(R11)
0.000000000000000e+000	2.461600e-049	1.438972e-015	1.438972e-015	3.300000e+000	-2.658278e-026	2.324915e-027	-3.762776e-027	1.438972e-027	9.203437e-012
7.336537250194757e-007	6.423744e-017	-3.277367e-007	-2.065310e-006	3.300000e+000	9.101651e-012	3.696964e-011	-1.800032e-011	-1.896932e-011	9.195430e-012
1.467307450038952e-006	8.145498e-017	-3.505225e-007	-2.307148e-006	3.300000e+000	1.023608e-011	4.163033e-011	-2.024397e-011	-2.138637e-011	9.194204e-012
2.200961175058427e-006	9.188441e-018	-6.835744e-008	-7.255155e-007	3.300000e+000	3.403296e-012	1.398209e-011	-6.730953e-012	-7.251135e-012	9.199759e-012
2.934614900077903e-006	9.934437e-017	5.187585e-007	2.679588e-006	3.300000e+000	-1.139671e-011	-4.597510e-011	2.253873e-011	2.343637e-011	9.212094e-012
3.668268625097379e-006	8.982000e-016	1.410825e-006	7.908163e-006	3.300000e+000	-3.416393e-011	-1.382412e-010	6.756508e-011	7.067615e-011	9.231209e-012
4.401922350116854e-006	3.246403e-015	2.607843e-006	1.496021e-005	3.300000e+000	-6.489838e-011	-2.628163e-010	1.283481e-010	1.344682e-010	9.257106e-012
5.135576075136328e-006	8.278973e-015	4.109811e-006	2.383573e-005	3.300000e+000	-1.036000e-010	-4.197003e-010	2.048878e-010	2.148125e-010	9.289782e-012
5.804270038804124e-006	6.723376e-014	1.073772e-005	6.695148e-005	3.300000e+000	-2.944661e-010	-1.196037e-009	5.823648e-010	6.136727e-010	9.449683e-012
6.240039422441757e-006	3.216628e-013	2.240768e-005	1.453636e-004	3.300000e+000	-6.435443e-010	-2.616083e-009	1.272737e-009	1.343346e-009	9.742073e-012
6.640910966818768e-006	1.375179e-012	4.498895e-005	2.992200e-004	3.300000e+000	-1.329884e-009	-5.409171e-009	2.630110e-009	2.779061e-009	1.031730e-011
6.922549898479322e-006	3.916836e-012	7.478990e-005	5.038485e-004	3.300000e+000	-2.243835e-009	-9.128907e-009	4.437620e-009	4.691287e-009	1.108370e-011
7.190928540774274e-006	1.086972e-011	1.234279e-004	8.381844e-004	3.300000e+000	-3.738054e-009	-1.520758e-008	7.392689e-009	7.814895e-009	1.233632e-011
7.426439946991448e-006	2.668778e-011	1.927483e-004	1.312715e-003	3.300000e+000	-5.858537e-009	-2.382908e-008	1.158622e-008	1.224286e-008	1.411318e-011
7.663528447057288e-006	6.680501e-011	3.057069e-004	2.077665e-003	3.300000e+000	-9.274058e-009	-3.770124e-008	1.834056e-008	1.936068e-008	1.697379e-011
7.928891842345702e-006	1.829069e-010	5.111215e-004	3.443121e-003	3.300000e+000	-1.536015e-008	-6.238298e-008	3.037471e-008	3.200827e-008	2.206719e-011
8.208496106977785e-006	5.049659e-010	8.663497e-004	5.738043e-003	3.300000e+000	-2.555845e-008	-1.036530e-007	5.053527e-008	5.311778e-008	3.059262e-011
8.499077057687545e-006	1.367841e-009	1.473208e-003	9.491220e-003	3.300000e+000	-4.215571e-008	-1.705960e-007	8.333060e-008	8.726539e-008	4.444234e-011
8.804435791948542e-006	3.590619e-009	2.509427e-003	1.550016e-002	3.300000e+000	-6.848066e-008	-2.763985e-007	1.353606e-007	1.410380e-007	6.637765e-011
9.132756773657966e-006	9.040832e-009	4.286203e-003	2.489977e-002	3.300000e+000	-1.090157e-007	-4.385865e-007	2.154949e-007	2.230916e-007	1.000995e-010
9.498607711201068e-006	2.172914e-008	7.376987e-003	3.933430e-002	3.300000e+000	-1.696770e-007	-6.799427e-007	3.353402e-007	3.446025e-007	1.504697e-010
9.929434284514343e-006	5.014590e-008	1.294657e-002	6.149405e-002	3.299999e+000	-2.588512e-007	-1.032925e-006	5.113172e-007	5.216078e-007	2.245460e-010
1.047402370728876e-005	1.121234e-007	2.357570e-002	9.616908e-002	3.299999e+000	-3.885203e-007	-1.544540e-006	7.667054e-007	7.778344e-007	3.330101e-010
1.123771902722846e-005	2.466591e-007	4.611095e-002	1.537817e-001	3.299999e+000	-5.775016e-007	-2.290866e-006	1.137264e-006	1.153602e-006	4.949239e-010
1.252455415827290e-005	5.589932e-007	1.015532e-001	2.636417e-001	3.299998e+000	-8.673260e-007	-3.448692e-006	1.699982e-006	1.748710e-006	7.605854e-010
1.435305997234097e-005	1.074847e-006	2.077284e-001	4.324901e-001	3.299998e+000	-1.188240e-006	-4.782164e-006	2.311059e-006	2.471106e-006	1.107682e-009
1.637144090409926e-005	1.609212e-006	3.525882e-001	6.276027e-001	3.299997e+000	-1.415854e-006	-5.851372e-006	2.729613e-006	3.121758e-006	1.467396e-009
1.877968731210537e-005	2.147406e-006	5.481957e-001	8.658875e-001	3.299996e+000	-1.537442e-006	-6.759401e-006	2.953995e-006	3.805406e-006	1.937130e-009
2.176131217073846e-005	2.947799e-006	7.898878e-001	1.162106e+000	3.299992e+000	-1.266919e-006	-7.919542e-006	2.524760e-006	5.394782e-006	3.499929e-009
2.315447273636513e-005	3.910244e-006	8.686970e-001	1.297394e+000	3.299987e+000	-7.398552e-007	-9.121221e-006	1.628515e-006	7.492706e-006	5.705828e-009
2.476103610188880e-005	6.309648e-006	9.046384e-001	1.449206e+000	3.299980e+000	-1.598889e-007	-1.158654e-005	6.388366e-007	1.094770e-005	9.089184e-009
2.613754630243642e-005	9.402623e-006	9.144258e-001	1.579199e+000	3.299975e+000	-8.185759e-008	-1.414411e-005	5.331457e-007	1.361096e-005	1.139911e-008
2.761110208357007e-005	1.356237e-005	9.218497e-001	1.720243e+000	3.299970e+000	-1.043282e-007	-1.698708e-005	6.107180e-007	1.637637e-005	1.372638e-008
2.996184279778224e-005	2.192556e-005	9.329423e-001	1.948078e+000	3.299961e+000	-7.665796e-008	-2.159864e-005	6.186135e-007	2.098003e-005	1.766312e-008
3.336530637657814e-005	3.791938e-005	9.467222e-001	2.281717e+000	3.299948e+000	-7.193638e-008	-2.840414e-005	6.960992e-007	2.770804e-005	2.343764e-008
3.920326835633101e-005	7.626386e-005	9.672787e-001	2.860530e+000	3.299926e+000	-6.019982e-008	-4.028195e-005	8.361418e-007	3.944580e-005	3.375862e-008
5.087919231583676e-005	1.947886e-004	1.003028e+000	4.028762e+000	3.299869e+000	-5.207741e-008	-6.437732e-005	1.208082e-006	6.316924e-005	5.945151e-008
6.678278083803750e-005	4.467890e-004	1.046992e+000	5.629467e+000	3.299138e+000	-4.587791e-008	-9.749948e-005	1.858136e-006	9.564134e-005	3.919658e-007
7.790036367573999e-005	6.856591e-004	1.075647e+000	6.752440e+000	3.290989e+000	-4.321077e-008	-1.207828e-004	2.435916e-006	1.183469e-004	4.095940e-006
8.634496009186155e-005	9.018965e-004	1.096454e+000	7.607148e+000	3.264310e+000	-4.176697e-008	-1.385254e-004	2.979562e-006	1.355458e-004	1.622260e-005
9.669915283429054e-005	1.208032e-003	1.121230e+000	8.656315e+000	3.208007e+000	-4.040180e-008	-1.603209e-004	3.773378e-006	1.565476e-004	4.181500e-005
1.073452769055176e-004	1.569897e-003	1.146100e+000	9.735929e+000	3.151870e+000	-3.908706e-008	-1.827623e-004	4.731020e-006	1.780313e-004	6.733213e-005
1.191847596600287e-004	2.028534e-003	1.173101e+000	1.093738e+001	3.102927e+000	-3.800687e-008	-2.077505e-004	5.986406e-006	2.017641e-004	8.957848e-005
1.355186854791864e-004	2.758577e-003	1.209373e+000	1.259591e+001	3.045526e+000	-3.677183e-008	-2.422667e-004	8.054713e-006	2.342120e-004	1.156700e-004
1.664658982840722e-004	4.450927e-003	1.276143e+000	1.573967e+001	2.939813e+000	-3.602066e-008	-3.077346e-004	1.263372e-005	2.951009e-004	1.637215e-004
2.188402796526230e-004	8.234489e-003	1.386815e+000	2.105966e+001	2.749529e+000	-3.724773e-008	-4.185713e-004	2.042341e-005	3.981479e-004	2.502141e-004
3.196742834770813e-004	1.875524e-002	1.599555e+000	3.128955e+001	2.344417e+000	-4.193798e-008	-6.317021e-004	3.165773e-005	6.000444e-004	4.343558e-004
4.434923804425160e-004	3.743789e-002	1.863931e+000	4.381129e+001	1.793580e+000	-4.504851e-008	-8.924970e-004	3.795637e-005	8.545406e-004	6.847362e-004
5.908683945577966e-004	6.782490e-002	2.180942e+000	5.864128e+001	1.090313e+000	-4.443589e-008	-1.201284e-003	3.866634e-005	1.162617e-003	1.004403e-003
6.964404534750539e-004	9.493702e-002	2.407528e+000	6.920603e+001	5.749415e-001	-4.270280e-008	-1.421245e-003	3.727509e-005	1.383970e-003	1.238663e-003
7.385477753066119e-004	1.069575e-001	2.497365e+000	7.339872e+001	3.778834e-001	-4.191563e-008	-1.508540e-003	3.655988e-005	1.471980e-003	1.328235e-003
7.654016829803885e-004	1.149707e-001	2.554389e+000	7.606374e+001	2.751283e-001	-4.147239e-008	-1.564029e-003	3.611095e-005	1.527918e-003	1.374942e-003
7.818298658077626e-004	1.200055e-001	2.589176e+000	7.769084e+001	2.402540e-001	-4.120069e-008	-1.597908e-003	3.584396e-005	1.562064e-003	1.390794e-003
8.026836749615738e-004	1.265423e-001	2.633243e+000	7.975319e+001	2.247757e-001	-4.088862e-008	-1.640850e-003	3.551353e-005	1.605336e-003	1.397829e-003
8.158828210089692e-004	1.307635e-001	2.661083e+000	8.105677e+001	2.198168e-001	-4.069258e-008	-1.667993e-003	3.530967e-005	1.632684e-003	1.400083e-003
8.326779671111453e-004	1.362254e-001	2.696422e+000	8.271262e+001	2.148783e-001	-4.044840e-008	-1.702472e-003	3.505974e-005	1.667413e-003	1.402328e-003
8.662682593154973e-004	1.474566e-001	2.766864e+000	8.601624e+001	2.073291e-001	-4.010355e-008	-1.771263e-003	3.459050e-005	1.736673e-003	1.405759e-003
9.175437439462733e-004	1.653741e-001	2.873698e+000	9.103595e+001	1.989906e-001	-3.985007e-008	-1.875793e-003	3.399107e-005	1.841801e-003	1.409550e-003
1.020094713207826e-003	2.040147e-001	3.085228e+000	1.010071e+002	1.873458e-001	-4.080001e-008	-2.083444e-003	3.327956e-005	2.050164e-003	1.414843e-003
1.115343971194816e-003	2.430590e-001	3.277312e+000	1.101594e+002	1.798491e-001	-4.701088e-008	-2.274086e-003	3.448010e-005	2.239606e-003	1.418250e-003
1.303473049410351e-003	3.283839e-001	3.634992e+000	1.278688e+002	1.702200e-001	-9.149646e-008	-2.643273e-003	5.040735e-005	2.592866e-003	1.422627e-003
1.579814768034397e-003	4.723524e-001	4.107851e+000	1.531064e+002	1.608512e-001	-2.285224e-007	-3.170181e-003	1.097063e-004	3.060475e-003	1.426886e-003
1.850217011924346e-003	6.307677e-001	4.512539e+000	1.766929e+002	1.547980e-001	-4.262917e-007	-3.663412e-003	2.022777e-004	3.461135e-003	1.429637e-003
2.167954215088284e-003	8.306338e-001	4.928041e+000	2.025129e+002	1.499106e-001	-6.974996e-007	-4.203934e-003	3.310256e-004	3.872908e-003	1.431859e-003
2.618419631193315e-003	1.119923e+000	5.431201e+000	2.348574e+002	1.450612e-001	-1.074442e-006	-4.881408e-003	5.094554e-004	4.371953e-003	1.434063e-003
3.338128257544714e-003	1.559716e+000	6.070987e+000	2.768230e+002	1.398844e-001	-1.591556e-006	-5.760681e-003	7.537486e-004	5.006933e-003	1.436416e-003
4.037357418727284e-003	1.921457e+000	6.526650e+000	3.070403e+002	1.366574e-001	-1.974894e-006	-6.393908e-003	9.345201e-004	5.459388e-003	1.437883e-003
4.379435433741849e-003	2.042738e+000	6.668787e+000	3.165215e+002	1.357373e-001	-2.097035e-006	-6.592611e-003	9.920436e-004	5.600567e-003	1.438301e-003
4.719388471062179e-003	2.103717e+000	6.738472e+000	3.211819e+002	1.353077e-001	-2.157433e-006	-6.690287e-003	1.020493e-003	5.669794e-003	1.438497e-003
5.142130981583096e-003	2.113861e+000	6.749955e+000	3.219507e+002	1.352379e-001	-2.167310e-006	-6.706398e-003	1.025195e-003	5.681203e-003	1.438528e-003
5.531404838792435e-003	2.050784e+000	6.678023e+000	3.171403e+002	1.356830e-001	-2.104855e-006	-6.605581e-003	9.958365e-004	5.609744e-003	1.438326e-003
6.163747530953136e-003	1.802119e+000	6.381470e+000	2.974134e+002	1.376881e-001	-1.852277e-006	-6.192169e-003	8.769382e-004	5.315231e-003	1.437414e-003
7.178770805090919e-003	1.218671e+000	5.581144e+000	2.449084e+002	1.441138e-001	-1.203892e-006	-5.092069e-003	5.711867e-004	4.520882e-003	1.434494e-003
8.044974096539651e-003	6.874794e-001	4.633523e+000	1.843876e+002	1.536264e-001	-5.103659e-007	-3.824555e-003	2.434268e-004	3.581128e-003	1.430170e-003
8.401906409257795e-003	4.818112e-001	4.137785e+000	1.546208e+002	1.604648e-001	-2.309919e-007	-3.201765e-003	1.116325e-004	3.090133e-003	1.427062e-003
8.695267695887243e-003	3.284355e-001	3.648866e+000	1.278925e+002	1.704911e-001	-6.800875e-008	-2.643481e-003	3.681024e-005	2.606670e-003	1.422504e-003
8.976191416218873e-003	2.049738e-001	3.118882e+000	1.012707e+002	1.879222e-001	9.333978e-009	-2.088336e-003	4.813573e-006	2.083522e-003	1.414581e-003
9.140374854271296e-003	1.449891e-001	2.786620e+000	8.533652e+001	2.082992e-001	2.464726e-008	-1.756381e-003	1.802769e-007	1.756200e-003	1.405319e-003
9.224963186460641e-003	1.177721e-001	2.610446e+000	7.700996e+001	2.335855e-001	2.686764e-008	-1.582968e-003	-2.573915e-008	1.582994e-003	1.393825e-003
9.280436357093323e-003	1.013485e-001	2.493804e+000	7.151103e+001	2.769077e-001	2.761960e-008	-1.468452e-003	-4.446040e-008	1.468496e-003	1.374133e-003
9.315033622510177e-003	9.169310e-002	2.420675e+000	6.806803e+001	3.455119e-001	2.799650e-008	-1.396752e-003	-4.840116e-008	1.396801e-003	1.342949e-003
9.353226369877954e-003	8.156968e-002	2.339649e+000	6.425713e+001	4.816326e-001	2.832924e-008	-1.317393e-003	-5.048091e-008	1.317444e-003	1.281076e-003
9.380063614442201e-003	7.479776e-002	2.282556e+000	6.157417e+001	6.094500e-001	2.857989e-008	-1.261524e-003	-5.146729e-008	1.261575e-003	1.222977e-003
9.455257022042477e-003	5.732910e-002	2.121667e+000	5.402993e+001	1.014957e+000	2.910323e-008	-1.104431e-003	-5.285542e-008	1.104484e-003	1.038656e-003
9.521330794345756e-003	4.384378e-002	1.979189e+000	4.737366e+001	1.360710e+000	2.949149e-008	-9.658397e-004	-5.364981e-008	9.658934e-004	8.814954e-004
9.614713276283410e-003	2.782097e-002	1.776082e+000	3.793664e+001	1.828741e+000	3.009472e-008	-7.693735e-004	-5.482969e-008	7.694283e-004	6.687542e-004
9.730666333937895e-003	1.294447e-002	1.518181e+000	2.618375e+001	2.361359e+000	3.117773e-008	-5.247992e-004	-5.694042e-008	5.248562e-004	4.266550e-004
9.910625773871282e-003	9.934270e-004	1.098062e+000	7.931148e+000	3.084778e+000	3.770891e-008	-1.453848e-004	-6.919571e-008	1.454540e-004	9.782800e-005
9.962976238692823e-003	9.726600e-005	9.411831e-001	3.079290e+000	3.238373e+000	5.824500e-008	-4.549164e-005	-1.070993e-007	4.559874e-005	2.801234e-005
9.995267296493728e-003	1.366689e-006	8.155264e-001	1.068972e+000	3.287133e+000	4.696866e-008	-5.392448e-006	-8.649603e-008	5.478944e-006	5.848693e-006
1.000922431816106e-002	2.405629e-008	7.972140e-001	8.308390e-001	3.294920e+000	-4.577307e-008	-7.154272e-007	8.420986e-008	6.312173e-007	2.309244e-006
1.001915767962381e-002	1.551548e-006	8.471233e-001	1.117165e+000	3.296401e+000	-1.244683e-007	-5.745579e-006	2.288935e-007	5.516685e-006	1.635839e-006
1.002741142986658e-002	1.373420e-005	9.117625e-001	1.715197e+000	3.296371e+000	-9.847484e-008	-1.709436e-005	1.809312e-007	1.691343e-005	1.649453e-006
1.003472170136676e-002	4.570108e-005	9.520202e-001	2.417609e+000	3.294943e+000	-5.506653e-008	-3.118274e-005	1.010915e-007	3.108165e-005	2.298673e-006
1.004247395219061e-002	1.036271e-004	9.793433e-001	3.186258e+000	3.290680e+000	-4.635310e-008	-4.695563e-005	8.504783e-008	4.687058e-005	4.236406e-006
1.005135206440759e-002	2.004506e-004	1.006261e+000	4.075655e+000	3.278915e+000	-4.200048e-008	-6.530625e-005	7.699677e-008	6.522925e-005	9.584185e-006
1.006910828884155e-002	4.922360e-004	1.055045e+000	5.864941e+000	3.239153e+000	-3.776069e-008	-1.023382e-004	6.914495e-008	1.022690e-004	2.765772e-005
1.008653612718824e-002	9.067221e-004	1.099676e+000	7.627765e+000	3.189419e+000	-3.579483e-008	-1.388955e-004	6.548988e-008	1.388300e-004	5.026419e-005
1.012139180388163e-002	2.118384e-003	1.184260e+000	1.116244e+001	3.078399e+000	-3.377605e-008	-2.123017e-004	6.170557e-008	2.122400e-004	1.007276e-004
1.015322872780072e-002	3.671519e-003	1.258837e+000	1.439510e+001	2.968020e+000	-3.283978e-008	-2.794949e-004	5.992427e-008	2.794350e-004	1.508998e-004
1.021155944519397e-002	7.623390e-003	1.391490e+000	2.032029e+001	2.743269e+000	-3.184369e-008	-4.027403e-004	5.798866e-008	4.026823e-004	2.530594e-004
1.030508046013794e-002	1.693245e-002	1.599660e+000	2.981003e+001	2.346618e+000	-3.099830e-008	-6.002206e-004	5.627042e-008	6.001643e-004	4.333556e-004
1.043430851913207e-002	3.575341e-002	1.881852e+000	4.287466e+001	1.751993e+000	-3.029796e-008	-8.721874e-004	5.491046e-008	8.721325e-004	7.036395e-004
1.063761062051748e-002	7.918249e-002	2.319457e+000	6.332419e+001	7.731334e-001	-2.968395e-008	-1.297973e-003	5.502650e-008	1.297918e-003	1.148576e-003
1.070165960279273e-002	9.629001e-002	2.455841e+000	6.972865e+001	4.684556e-001	-2.968904e-008	-1.431336e-003	5.780318e-008	1.431279e-003	1.287066e-003
1.074252328868547e-002	1.080180e-001	2.542179e+000	7.379417e+001	2.949800e-001	-2.966675e-008	-1.516000e-003	6.249930e-008	1.515937e-003	1.365918e-003
1.076020449654828e-002	1.132871e-001	2.579400e+000	7.554852e+001	2.494619e-001	-2.975266e-008	-1.552534e-003	6.681385e-008	1.552468e-003	1.386608e-003
1.078889102144077e-002	1.220858e-001	2.639639e+000	7.838943e+001	2.237635e-001	-2.985715e-008	-1.611698e-003	7.761229e-008	1.611620e-003	1.398289e-003
1.080239341609258e-002	1.263346e-001	2.667937e+000	7.972459e+001	2.185254e-001	-2.998445e-008	-1.639503e-003	8.525171e-008	1.639418e-003	1.400670e-003
1.082056951911156e-002	1.321575e-001	2.705931e+000	8.151839e+001	2.136370e-001	-3.023603e-008	-1.676861e-003	1.020304e-007	1.676759e-003	1.402892e-003
1.085692172514950e-002	1.441648e-001	2.781645e+000	8.509656e+001	2.059012e-001	-3.056425e-008	-1.751381e-003	1.687391e-007	1.751212e-003	1.406408e-003
1.091407174361984e-002	1.640136e-001	2.899916e+000	9.069878e+001	1.969149e-001	-3.155870e-008	-1.868061e-003	4.615346e-007	1.867599e-003	1.410493e-003
1.098792740777153e-002	1.913501e-001	3.049897e+000	9.788373e+001	1.888900e-001	-3.387876e-008	-2.017741e-003	2.391727e-006	2.015349e-003	1.414141e-003
1.113563873607492e-002	2.516709e-001	3.339221e+000	1.120983e+002	1.779009e-001	-4.418840e-008	-2.314023e-003	1.332318e-005	2.300699e-003	1.419136e-003
1.126862322888515e-002	3.120097e-001	3.586265e+000	1.246832e+002	1.709505e-001	-7.074762e-008	-2.576530e-003	3.188547e-005	2.544644e-003	1.422295e-003
1.146955822302766e-002	4.129809e-001	3.935308e+000	1.432554e+002	1.636593e-001	-1.548924e-007	-2.964258e-003	7.454373e-005	2.889715e-003	1.425609e-003
1.167712391482034e-002	5.284187e-001	4.265360e+000	1.618587e+002	1.581455e-001	-2.876218e-007	-3.353051e-003	1.367303e-004	3.216321e-003	1.428116e-003
1.190618681988255e-002	6.646294e-001	4.588757e+000	1.813303e+002	1.538235e-001	-4.717890e-007	-3.760459e-003	2.238151e-004	3.536644e-003	1.430080e-003
1.236431263000697e-002	9.568725e-001	5.157847e+000	2.172263e+002	1.476255e-001	-8.670860e-007	-4.512093e-003	4.112899e-004	4.100804e-003	1.432898e-003
1.284437905903793e-002	1.262654e+000	5.652272e+000	2.492601e+002	1.431495e-001	-1.248725e-006	-5.183144e-003	5.918359e-004	4.591309e-003	1.434932e-003
1.369674908725184e-002	1.761943e+000	6.332060e+000	2.941017e+002	1.379860e-001	-1.809824e-006	-6.122757e-003	8.566145e-004	5.266143e-003	1.437279e-003
1.412677011375361e-002	1.963796e+000	6.577018e+000	3.103836e+002	1.363093e-001	-2.017695e-006	-6.463969e-003	9.545634e-004	5.509406e-003	1.438041e-003
1.444651125264111e-002	2.059342e+000	6.687929e+000	3.177973e+002	1.356145e-001	-2.113547e-006	-6.619349e-003	9.997670e-004	5.619582e-003	1.438357e-003
1.480053600913731e-002	2.111205e+000	6.746943e+000	3.217496e+002	1.352570e-001	-2.164790e-006	-6.702183e-003	1.023973e-003	5.678210e-003	1.438520e-003
1.522578092651066e-002	2.104932e+000	6.739847e+000	3.212741e+002	1.352993e-001	-2.158498e-006	-6.692219e-003	1.021058e-003	5.671160e-003	1.438500e-003
1.566752433941049e-002	2.010295e+000	6.631216e+000	3.140135e+002	1.359784e-001	-2.064437e-006	-6.540049e-003	9.768006e-004	5.563248e-003	1.438192e-003
1.638387482154715e-002	1.684210e+000	6.232576e+000	2.875826e+002	1.388021e-001	-1.729016e-006	-5.986171e-003	8.187581e-004	5.167414e-003	1.436908e-003
1.752625503703187e-002	1.012684e+000	5.253222e+000	2.234186e+002	1.468193e-001	-9.395128e-007	-4.641816e-003	4.463643e-004	4.195452e-003	1.433264e-003
1.797929161366019e-002	7.324966e-001	4.728097e+000	1.902742e+002	1.524803e-001	-5.726428e-007	-3.947788e-003	2.729590e-004	3.674829e-003	1.430691e-003
1.848630289683663e-002	4.349956e-001	4.002930e+000	1.469882e+002	1.627495e-001	-1.750444e-007	-3.042240e-003	8.554131e-005	2.956699e-003	1.426023e-003
1.870810129720449e-002	3.225307e-001	3.629613e+000	1.267513e+002	1.708362e-001	-5.766838e-008	-2.619610e-003	3.199636e-005	2.587614e-003	1.422347e-003
